<Qucs Dataset 0.0.20>
<indep frequency 39>
  +1.00000000000000000000e+09
  +1.10526315789473676682e+09
  +1.21052631578947377205e+09
  +1.31578947368421053886e+09
  +1.42105263157894730568e+09
  +1.52631578947368431091e+09
  +1.63157894736842107773e+09
  +1.73684210526315784454e+09
  +1.84210526315789461136e+09
  +1.94736842105263161659e+09
  +2.05263157894736838341e+09
  +2.15789473684210491180e+09
  +2.26315789473684215546e+09
  +2.36842105263157892227e+09
  +2.47368421052631568909e+09
  +2.57894736842105293274e+09
  +2.68421052631578922272e+09
  +2.78947368421052646637e+09
  +2.89473684210526323318e+09
  +3.00000000000000000000e+09
  +3.10526315789473676682e+09
  +3.21052631578947353363e+09
  +3.31578947368421030045e+09
  +3.42105263157894754410e+09
  +3.52631578947368431091e+09
  +3.63157894736842107773e+09
  +3.73684210526315784454e+09
  +3.84210526315789461136e+09
  +3.94736842105263137817e+09
  +4.05263157894736862183e+09
  +4.15789473684210538864e+09
  +4.26315789473684215546e+09
  +4.36842105263157844543e+09
  +4.47368421052631568909e+09
  +4.57894736842105293274e+09
  +4.68421052631578922272e+09
  +4.78947368421052646637e+09
  +4.89473684210526275635e+09
  +5.00000000000000000000e+09
</indep>
<dep S[3,3] frequency>
  -9.51579790830777372257e-01-j2.21841904343527990262e-01
  -9.62768219849542195021e-01-j2.00729818009765026421e-01
  -9.70723388355911764869e-01-j1.82848672138765627748e-01
  -9.76507321858876786713e-01-j1.67644355459582089507e-01
  -9.80803284158987764840e-01-j1.54631846767925518193e-01
  -9.84058147431742358258e-01-j1.43411180467378468473e-01
  -9.86569714518868767783e-01-j1.33660569815744895150e-01
  -9.88540327482260061664e-01-j1.25123374335303322313e-01
  -9.90110113335734620676e-01-j1.17595050960612165780e-01
  -9.91377904627992578845e-01-j1.10911999493469443090e-01
  -9.92414624565199798845e-01-j1.04942609564299543790e-01
  -9.93272000171753211006e-01-j9.95802733470121798076e-02
  -9.93988332708730992771e-01-j9.47379967733662092799e-02
  -9.94592383774586918932e-01-j9.03442578766050774508e-02
  -9.95106034797768490563e-01-j8.63398197648149179351e-02
  -9.95546135104172003061e-01-j8.26752686439148343212e-02
  -9.95925804808324599549e-01-j7.93091016287156141962e-02
  -9.96255365926351443839e-01-j7.62062322588676482882e-02
  -9.96543016338213072380e-01-j7.33368146610136606434e-02
  -9.96795323468500638064e-01-j7.06753120861795675056e-02
  -9.97017589942255422208e-01-j6.81997539991169715590e-02
  -9.97214127201865419003e-01-j6.58911395894519053007e-02
  -9.97388462169273348756e-01-j6.37329557479731634295e-02
  -9.97543494637354921650e-01-j6.17107851342550764451e-02
  -9.97681617987127622449e-01-j5.98119856410401565250e-02
  -9.97804812287067743881e-01-j5.80254268404366627121e-02
  -9.97914716336927742901e-01-j5.63412722463190671074e-02
  -9.98012683440457681883e-01-j5.47507987178919228177e-02
  -9.98099824408957836397e-01-j5.32462462626974719626e-02
  -9.98177040363133150080e-01-j5.18206930255091791082e-02
  -9.98245047216574143967e-01-j5.04679514907107260036e-02
  -9.98304393229295539136e-01-j4.91824829760585113814e-02
  -9.98355470683481516225e-01-j4.79593284387464513507e-02
  -9.98398522556894096880e-01-j4.67940545289119713690e-02
  -9.98433645094222166350e-01-j4.56827147894272103668e-02
  -9.98460787507537528285e-01-j4.46218269914403220522e-02
  -9.98479750881146821406e-01-j4.36083688749133030482e-02
  -9.98490190089826867847e-01-j4.26397960314729429498e-02
  -9.98491625805318139264e-01-j4.17140871335789850671e-02
</dep>
<dep S[3,2] frequency>
  -1.43905766866215367727e-01-j4.12909650292968277707e-02
  -1.26238019744329688088e-01-j1.67956472934113129614e-02
  -1.09522302539368024399e-01+j2.44042562707021907370e-04
  -9.44041933687026907362e-02+j1.20131850470647939116e-02
  -8.10400293850516151295e-02+j2.00614600257773591230e-02
  -6.93625178847351309130e-02+j2.54767016919764006933e-02
  -5.92132784514023541300e-02+j2.90219374617484981993e-02
  -5.04071306291010087786e-02+j3.12344181107188957613e-02
  -4.27618779889233288638e-02+j3.24946451617655340804e-02
  -3.61108766506283776487e-02+j3.30738372982469705508e-02
  -3.03071847468027212591e-02+j3.31664893141015437728e-02
  -2.52237485184521811887e-02+j3.29127792315472289530e-02
  -2.07518648447796369427e-02+j3.24140869887661886573e-02
  -1.67990280705578136355e-02+j3.17438269208822412826e-02
  -1.32866912677270711945e-02+j3.09550729206168225016e-02
  -1.01481788685545623596e-02+j3.00859709149936052630e-02
  -7.32684096362758077031e-03+j2.91636110186887127782e-02
  -4.77446843156148579418e-03+j2.82068171016555714614e-02
  -2.44995566983082337445e-03+j2.72281679381124984418e-02
  -3.18184904058492023897e-04+j2.62354674124413989045e-02
  +1.65089707426062837388e-03+j2.52328156005135161022e-02
  +3.48303748954648930911e-03+j2.42213875452591403947e-02
  +5.20029590742630831723e-03+j2.31999953839914715981e-02
  +6.82154275396303078072e-03+j2.21654876549826629351e-02
  +8.36285441837352795658e-03+j2.11130241112922889535e-02
  +9.83781735806651090603e-03+j2.00362531885805994492e-02
  +1.12577497008117810573e-02+j1.89274110564171711701e-02
  +1.26318447715709197138e-02+j1.77773550270181879274e-02
  +1.39672364470511921331e-02+j1.65755394309275091991e-02
  +1.52689808108682368443e-02+j1.53099386046581988768e-02
  +1.65399416291273117230e-02+j1.39669193697216521138e-02
  +1.77805578541212275234e-02+j1.25310646920123586190e-02
  +1.89884585831065905159e-02+j1.09849520454906764144e-02
  +2.01578732392630188830e-02+j9.30889626077952871130e-03
  +2.12787605722521491747e-02+j7.48068081924318194209e-03
  +2.23355479318241081921e-02+j5.47532988837772308099e-03
  +2.33053320036341535260e-02+j3.26502668168859779690e-03
  +2.41553479189837473629e-02+j8.19380090930713999957e-04
  +2.48394805664185203131e-02-j1.89359006810799874142e-03
</dep>
<dep S[3,1] frequency>
  -1.43905766866215367727e-01-j4.12909650292968416485e-02
  -1.26238019744329688088e-01-j1.67956472934113199003e-02
  -1.09522302539368024399e-01+j2.44042562707020253962e-04
  -9.44041933687027184918e-02+j1.20131850470647973811e-02
  -8.10400293850516290073e-02+j2.00614600257773625924e-02
  -6.93625178847351447908e-02+j2.54767016919763972238e-02
  -5.92132784514023471911e-02+j2.90219374617484947299e-02
  -5.04071306291010087786e-02+j3.12344181107188957613e-02
  -4.27618779889233288638e-02+j3.24946451617655410193e-02
  -3.61108766506283776487e-02+j3.30738372982469636119e-02
  -3.03071847468027177896e-02+j3.31664893141015298950e-02
  -2.52237485184521811887e-02+j3.29127792315472358919e-02
  -2.07518648447796334733e-02+j3.24140869887661817184e-02
  -1.67990280705578101661e-02+j3.17438269208822412826e-02
  -1.32866912677270711945e-02+j3.09550729206168225016e-02
  -1.01481788685545640943e-02+j3.00859709149936087325e-02
  -7.32684096362758250504e-03+j2.91636110186887127782e-02
  -4.77446843156148666154e-03+j2.82068171016555749309e-02
  -2.44995566983082380813e-03+j2.72281679381125019113e-02
  -3.18184904058491915477e-04+j2.62354674124414023739e-02
  +1.65089707426062837388e-03+j2.52328156005135126327e-02
  +3.48303748954648974279e-03+j2.42213875452591403947e-02
  +5.20029590742630918460e-03+j2.31999953839914715981e-02
  +6.82154275396303078072e-03+j2.21654876549826594656e-02
  +8.36285441837352795658e-03+j2.11130241112922889535e-02
  +9.83781735806651090603e-03+j2.00362531885805925103e-02
  +1.12577497008117793226e-02+j1.89274110564171746396e-02
  +1.26318447715709197138e-02+j1.77773550270181844579e-02
  +1.39672364470511921331e-02+j1.65755394309275091991e-02
  +1.52689808108682368443e-02+j1.53099386046581971421e-02
  +1.65399416291273117230e-02+j1.39669193697216521138e-02
  +1.77805578541212275234e-02+j1.25310646920123568843e-02
  +1.89884585831065870465e-02+j1.09849520454906746797e-02
  +2.01578732392630223524e-02+j9.30889626077952871130e-03
  +2.12787605722521526441e-02+j7.48068081924318194209e-03
  +2.23355479318241047226e-02+j5.47532988837772481572e-03
  +2.33053320036341500565e-02+j3.26502668168859649586e-03
  +2.41553479189837508323e-02+j8.19380090930713241015e-04
  +2.48394805664185168437e-02-j1.89359006810799700669e-03
</dep>
<dep S[2,3] frequency>
  -1.43905766866215367727e-01-j4.12909650292968277707e-02
  -1.26238019744329688088e-01-j1.67956472934113129614e-02
  -1.09522302539368024399e-01+j2.44042562707022124210e-04
  -9.44041933687026907362e-02+j1.20131850470647939116e-02
  -8.10400293850516151295e-02+j2.00614600257773591230e-02
  -6.93625178847351309130e-02+j2.54767016919764006933e-02
  -5.92132784514023541300e-02+j2.90219374617484981993e-02
  -5.04071306291010087786e-02+j3.12344181107188957613e-02
  -4.27618779889233288638e-02+j3.24946451617655340804e-02
  -3.61108766506283776487e-02+j3.30738372982469705508e-02
  -3.03071847468027212591e-02+j3.31664893141015437728e-02
  -2.52237485184521811887e-02+j3.29127792315472289530e-02
  -2.07518648447796369427e-02+j3.24140869887661886573e-02
  -1.67990280705578136355e-02+j3.17438269208822412826e-02
  -1.32866912677270694598e-02+j3.09550729206168225016e-02
  -1.01481788685545623596e-02+j3.00859709149936052630e-02
  -7.32684096362758077031e-03+j2.91636110186887127782e-02
  -4.77446843156148579418e-03+j2.82068171016555714614e-02
  -2.44995566983082337445e-03+j2.72281679381124984418e-02
  -3.18184904058492023897e-04+j2.62354674124413989045e-02
  +1.65089707426062837388e-03+j2.52328156005135161022e-02
  +3.48303748954648930911e-03+j2.42213875452591403947e-02
  +5.20029590742630831723e-03+j2.31999953839914715981e-02
  +6.82154275396303078072e-03+j2.21654876549826629351e-02
  +8.36285441837352795658e-03+j2.11130241112922889535e-02
  +9.83781735806651090603e-03+j2.00362531885805994492e-02
  +1.12577497008117810573e-02+j1.89274110564171711701e-02
  +1.26318447715709197138e-02+j1.77773550270181879274e-02
  +1.39672364470511921331e-02+j1.65755394309275091991e-02
  +1.52689808108682368443e-02+j1.53099386046581988768e-02
  +1.65399416291273117230e-02+j1.39669193697216521138e-02
  +1.77805578541212275234e-02+j1.25310646920123586190e-02
  +1.89884585831065905159e-02+j1.09849520454906764144e-02
  +2.01578732392630188830e-02+j9.30889626077952871130e-03
  +2.12787605722521491747e-02+j7.48068081924318194209e-03
  +2.23355479318241081921e-02+j5.47532988837772308099e-03
  +2.33053320036341535260e-02+j3.26502668168859779690e-03
  +2.41553479189837473629e-02+j8.19380090930714108377e-04
  +2.48394805664185203131e-02-j1.89359006810799874142e-03
</dep>
<dep S[2,2] frequency>
  +2.12499264976772350710e-01+j5.87706431527600159370e-01
  +2.90711797378503555844e-01+j4.84339928570187761014e-01
  +3.37341701310343078379e-01+j3.81972702763732852027e-01
  +3.58999876525790795334e-01+j2.86286474494210019248e-01
  +3.61539882004594526066e-01+j2.00355440276030860591e-01
  +3.49899384775636534961e-01+j1.25605491614955933066e-01
  +3.28142182744735999567e-01+j6.24303258315509548848e-02
  +2.99564607860789033911e-01+j1.05842586460604716481e-02
  +2.66812209001425937327e-01-j3.05654907741437949220e-02
  +2.31987676447615531750e-01-j6.18745954162989719727e-02
  +1.96745072616339333749e-01-j8.43134153355089704940e-02
  +1.62370555940568733755e-01-j9.88953933122263956212e-02
  +1.29851228501047050168e-01-j1.06630280217836007073e-01
  +9.99337898244059968933e-02-j1.08494920120953200482e-01
  +7.31742961340682840365e-02-j1.05416944124979816699e-01
  +4.99798869328214878660e-02-j9.82682216253849549759e-02
  +3.06429851010089418506e-02-j8.78657565747180957505e-02
  +1.53682382910827336486e-02-j7.49781689119830840884e-02
  +4.29234510915371680895e-03-j6.03361328523879456021e-02
  -2.50311699407146370788e-03-j4.46452550075619597481e-02
  -4.98569362330291213081e-03-j2.85999285784162837754e-02
  -3.17260607084143483880e-03-j1.28967339029482513935e-02
  +2.86257628200627459170e-03+j1.75400565254979837193e-03
  +1.29777521555835967382e-02+j1.46198460743761464442e-02
  +2.69453903451965723348e-02+j2.49422737839006466998e-02
  +4.44319025664458022717e-02+j3.19383249684327616413e-02
  +6.49744484584755810364e-02+j3.48087765569466828230e-02
  +8.79564893324152746734e-02+j3.27537575435585051609e-02
  +1.12583534449996816584e-01+j2.49964680121909574306e-02
  +1.37860618909646515107e-01+j1.08155441340551973506e-02
  +1.62573118628396906526e-01-j1.04135006193540099323e-02
  +1.85272562195263085227e-01-j3.91673527776714783255e-02
  +2.04269184628999289632e-01-j7.57139733806803938432e-02
  +2.17633175262432310149e-01-j1.20040817936702431945e-01
  +2.23207075052503922663e-01-j1.71770725620074837803e-01
  +2.18632889513495853873e-01-j2.30063026990682373274e-01
  +2.01399733531617247673e-01-j2.93496136971802268345e-01
  +1.68922072376269494232e-01-j3.59926618691359889723e-01
  +1.18666161071148384965e-01-j4.26319363308849952343e-01
</dep>
<dep S[2,1] frequency>
  +7.04737335248970753199e-01-j2.78851449452794275530e-01
  +6.82260278757666149829e-01-j4.31894129018156380795e-01
  +6.22817594444131095166e-01-j5.72428949003628839698e-01
  +5.34299290946351423948e-01-j6.94142655899843807887e-01
  +4.23923372607266979450e-01-j7.93464848561103330837e-01
  +2.98064464033837406287e-01-j8.68622498206158555334e-01
  +1.62280429955014932064e-01-j9.19036758830640732043e-01
  +2.14007173757778737522e-02-j9.44941717367023370500e-01
  -1.20377637595872860610e-01-j9.47141714683217506021e-01
  -2.59405190215208469873e-01-j9.26854163053392188232e-01
  -3.92511046227374538198e-01-j8.85605157523817521081e-01
  -5.16948905431591887449e-01-j8.25157909065951211680e-01
  -6.30355894291403595631e-01-j7.47461747532143561124e-01
  -7.30721701972171677752e-01-j6.54614080943793585909e-01
  -8.16365811530146312514e-01-j5.48830494685626169016e-01
  -8.85920994845794673722e-01-j4.32419883922329939541e-01
  -9.38321590332748201035e-01-j3.07762580564908960756e-01
  -9.72795376830599689555e-01-j1.77290120625155617207e-01
  -9.88858099261490930409e-01-j4.34657459759568917668e-02
  -9.86309902785542869097e-01+j9.12349710043722783581e-02
  -9.65233100939999810741e-01+j2.24343804519031325695e-01
  -9.25990842930283886147e-01+j3.53420172754873973542e-01
  -8.69226354406744561309e-01+j4.76072331686961780495e-01
  -7.95862500290021368521e-01+j5.89979748566898387629e-01
  -7.07101452367921434750e-01+j6.92916981947805710185e-01
  -6.04424234806087534722e-01+j7.82779461344860427729e-01
  -4.89589866911777027436e-01+j8.57611635100278935084e-01
  -3.64633728110410393342e-01+j9.15638028406511539359e-01
  -2.31864642658455605284e-01+j9.55297818497639394941e-01
  -9.38600305209887492142e-02+j9.75283593315073304986e-01
  +4.65416971954771899189e-02+j9.74585029148912762587e-01
  +1.86252509190582116183e-01+j9.52538334841904532624e-01
  +3.21951142420933256183e-01+j9.08882518458698829278e-01
  +4.50106127978946890522e-01+j8.43823909807077110479e-01
  +5.67007733934934421427e-01+j7.58111001456618804895e-01
  +6.68812357462971629474e-01+j6.53122613600628065811e-01
  +7.51605268861526454316e-01+j5.30973609467355389668e-01
  +8.11491952270782856971e-01+j3.94643586498984955124e-01
  +8.44735891664376681298e-01+j2.48134212863661107740e-01
</dep>
<dep S[1,3] frequency>
  -1.43905766866215367727e-01-j4.12909650292968416485e-02
  -1.26238019744329688088e-01-j1.67956472934113199003e-02
  -1.09522302539368024399e-01+j2.44042562707020253962e-04
  -9.44041933687027184918e-02+j1.20131850470647973811e-02
  -8.10400293850516290073e-02+j2.00614600257773625924e-02
  -6.93625178847351447908e-02+j2.54767016919763972238e-02
  -5.92132784514023471911e-02+j2.90219374617484947299e-02
  -5.04071306291010087786e-02+j3.12344181107188957613e-02
  -4.27618779889233288638e-02+j3.24946451617655410193e-02
  -3.61108766506283776487e-02+j3.30738372982469636119e-02
  -3.03071847468027177896e-02+j3.31664893141015298950e-02
  -2.52237485184521811887e-02+j3.29127792315472358919e-02
  -2.07518648447796334733e-02+j3.24140869887661817184e-02
  -1.67990280705578101661e-02+j3.17438269208822412826e-02
  -1.32866912677270711945e-02+j3.09550729206168225016e-02
  -1.01481788685545640943e-02+j3.00859709149936087325e-02
  -7.32684096362758250504e-03+j2.91636110186887127782e-02
  -4.77446843156148666154e-03+j2.82068171016555749309e-02
  -2.44995566983082380813e-03+j2.72281679381125019113e-02
  -3.18184904058491915477e-04+j2.62354674124414023739e-02
  +1.65089707426062837388e-03+j2.52328156005135126327e-02
  +3.48303748954648974279e-03+j2.42213875452591403947e-02
  +5.20029590742630918460e-03+j2.31999953839914715981e-02
  +6.82154275396303078072e-03+j2.21654876549826594656e-02
  +8.36285441837352795658e-03+j2.11130241112922854840e-02
  +9.83781735806651090603e-03+j2.00362531885805925103e-02
  +1.12577497008117793226e-02+j1.89274110564171746396e-02
  +1.26318447715709197138e-02+j1.77773550270181844579e-02
  +1.39672364470511921331e-02+j1.65755394309275091991e-02
  +1.52689808108682368443e-02+j1.53099386046581971421e-02
  +1.65399416291273117230e-02+j1.39669193697216521138e-02
  +1.77805578541212275234e-02+j1.25310646920123568843e-02
  +1.89884585831065870465e-02+j1.09849520454906746797e-02
  +2.01578732392630223524e-02+j9.30889626077952871130e-03
  +2.12787605722521526441e-02+j7.48068081924318194209e-03
  +2.23355479318241047226e-02+j5.47532988837772481572e-03
  +2.33053320036341500565e-02+j3.26502668168859649586e-03
  +2.41553479189837508323e-02+j8.19380090930713241015e-04
  +2.48394805664185168437e-02-j1.89359006810799700669e-03
</dep>
<dep S[1,2] frequency>
  +7.04737335248970753199e-01-j2.78851449452794275530e-01
  +6.82260278757666149829e-01-j4.31894129018156380795e-01
  +6.22817594444131095166e-01-j5.72428949003628839698e-01
  +5.34299290946351423948e-01-j6.94142655899843807887e-01
  +4.23923372607266979450e-01-j7.93464848561103330837e-01
  +2.98064464033837406287e-01-j8.68622498206158555334e-01
  +1.62280429955014932064e-01-j9.19036758830640732043e-01
  +2.14007173757778737522e-02-j9.44941717367023370500e-01
  -1.20377637595872860610e-01-j9.47141714683217506021e-01
  -2.59405190215208469873e-01-j9.26854163053392188232e-01
  -3.92511046227374538198e-01-j8.85605157523817521081e-01
  -5.16948905431591887449e-01-j8.25157909065951211680e-01
  -6.30355894291403595631e-01-j7.47461747532143561124e-01
  -7.30721701972171677752e-01-j6.54614080943793585909e-01
  -8.16365811530146312514e-01-j5.48830494685626169016e-01
  -8.85920994845794673722e-01-j4.32419883922329939541e-01
  -9.38321590332748201035e-01-j3.07762580564908960756e-01
  -9.72795376830599689555e-01-j1.77290120625155617207e-01
  -9.88858099261490930409e-01-j4.34657459759568917668e-02
  -9.86309902785542869097e-01+j9.12349710043722783581e-02
  -9.65233100939999810741e-01+j2.24343804519031325695e-01
  -9.25990842930283886147e-01+j3.53420172754873973542e-01
  -8.69226354406744561309e-01+j4.76072331686961780495e-01
  -7.95862500290021368521e-01+j5.89979748566898387629e-01
  -7.07101452367921434750e-01+j6.92916981947805710185e-01
  -6.04424234806087534722e-01+j7.82779461344860427729e-01
  -4.89589866911777027436e-01+j8.57611635100278935084e-01
  -3.64633728110410393342e-01+j9.15638028406511539359e-01
  -2.31864642658455605284e-01+j9.55297818497639394941e-01
  -9.38600305209887492142e-02+j9.75283593315073304986e-01
  +4.65416971954771899189e-02+j9.74585029148912762587e-01
  +1.86252509190582116183e-01+j9.52538334841904532624e-01
  +3.21951142420933256183e-01+j9.08882518458698829278e-01
  +4.50106127978946890522e-01+j8.43823909807077110479e-01
  +5.67007733934934421427e-01+j7.58111001456618804895e-01
  +6.68812357462971629474e-01+j6.53122613600628065811e-01
  +7.51605268861526454316e-01+j5.30973609467355389668e-01
  +8.11491952270782856971e-01+j3.94643586498984955124e-01
  +8.44735891664376681298e-01+j2.48134212863661107740e-01
</dep>
<dep S[1,1] frequency>
  +2.12499264976772322955e-01+j5.87706431527600381415e-01
  +2.90711797378503611355e-01+j4.84339928570187705503e-01
  +3.37341701310343078379e-01+j3.81972702763732796516e-01
  +3.58999876525790961868e-01+j2.86286474494210074759e-01
  +3.61539882004594581577e-01+j2.00355440276030860591e-01
  +3.49899384775636534961e-01+j1.25605491614955933066e-01
  +3.28142182744736055078e-01+j6.24303258315509895793e-02
